Freq.	V(n001)/I(V1)
1.00000000000000e+000	(5.55630453994833e+001dB,-1.79999027931476e+002°)
1.02329299228075e+000	(5.55630459524581e+001dB,-1.79998961156211e+002°)
1.04712854805090e+000	(5.55630465579418e+001dB,-1.79998889672853e+002°)
1.07151930523761e+000	(5.55630472209598e+001dB,-1.79998813146704e+002°)
1.09647819614318e+000	(5.55630479470202e+001dB,-1.79998731219231e+002°)
1.12201845430196e+000	(5.55630487421607e+001dB,-1.79998643506367e+002°)
1.14815362149688e+000	(5.55630496129990e+001dB,-1.79998549596699e+002°)
1.17489755493953e+000	(5.55630505667888e+001dB,-1.79998449049522e+002°)
1.20226443461741e+000	(5.55630516114814e+001dB,-1.79998341392755e+002°)
1.23026877081238e+000	(5.55630527557922e+001dB,-1.79998226120715e+002°)
1.25892541179417e+000	(5.55630540092746e+001dB,-1.79998102691721e+002°)
1.28824955169313e+000	(5.55630553824010e+001dB,-1.79997970525549e+002°)
1.31825673855641e+000	(5.55630568866504e+001dB,-1.79997829000683e+002°)
1.34896288259165e+000	(5.55630585346062e+001dB,-1.79997677451388e+002°)
1.38038426460288e+000	(5.55630603400622e+001dB,-1.79997515164577e+002°)
1.41253754462275e+000	(5.55630623181386e+001dB,-1.79997341376442e+002°)
1.44543977074593e+000	(5.55630644854107e+001dB,-1.79997155268862e+002°)
1.47910838816821e+000	(5.55630668600483e+001dB,-1.79996955965550e+002°)
1.51356124843621e+000	(5.55630694619692e+001dB,-1.79996742527935e+002°)
1.54881661891248e+000	(5.55630723130078e+001dB,-1.79996513950744e+002°)
1.58489319246111e+000	(5.55630754370996e+001dB,-1.79996269157283e+002°)
1.62181009735893e+000	(5.55630788604830e+001dB,-1.79996006994381e+002°)
1.65958690743756e+000	(5.55630826119218e+001dB,-1.79995726226976e+002°)
1.69824365246174e+000	(5.55630867229474e+001dB,-1.79995425532333e+002°)
1.73780082874937e+000	(5.55630912281261e+001dB,-1.79995103493837e+002°)
1.77827941003892e+000	(5.55630961653506e+001dB,-1.79994758594374e+002°)
1.81970085860998e+000	(5.55631015761604e+001dB,-1.79994389209226e+002°)
1.86208713666287e+000	(5.55631075060930e+001dB,-1.79993993598488e+002°)
1.90546071796325e+000	(5.55631140050684e+001dB,-1.79993569898942e+002°)
1.94984459975804e+000	(5.55631211278111e+001dB,-1.79993116115372e+002°)
1.99526231496888e+000	(5.55631289343124e+001dB,-1.79992630111269e+002°)
2.04173794466953e+000	(5.55631374903373e+001dB,-1.79992109598895e+002°)
2.08929613085404e+000	(5.55631468679799e+001dB,-1.79991552128647e+002°)
2.13796208950223e+000	(5.55631571462727e+001dB,-1.79990955077692e+002°)
2.18776162394955e+000	(5.55631684118537e+001dB,-1.79990315637810e+002°)
2.23872113856834e+000	(5.55631807596986e+001dB,-1.79989630802395e+002°)
2.29086765276777e+000	(5.55631942939225e+001dB,-1.79988897352561e+002°)
2.34422881531992e+000	(5.55632091286588e+001dB,-1.79988111842288e+002°)
2.39883291901949e+000	(5.55632253890234e+001dB,-1.79987270582547e+002°)
2.45470891568503e+000	(5.55632432121699e+001dB,-1.79986369624329e+002°)
2.51188643150958e+000	(5.55632627484479e+001dB,-1.79985404740521e+002°)
2.57039578276886e+000	(5.55632841626709e+001dB,-1.79984371406532e+002°)
2.63026799189538e+000	(5.55633076355074e+001dB,-1.79983264779602e+002°)
2.69153480392691e+000	(5.55633333650043e+001dB,-1.79982079676699e+002°)
2.75422870333816e+000	(5.55633615682570e+001dB,-1.79980810550921e+002°)
2.81838293126445e+000	(5.55633924832399e+001dB,-1.79979451466290e+002°)
2.88403150312660e+000	(5.55634263708120e+001dB,-1.79977996070852e+002°)
2.95120922666638e+000	(5.55634635169152e+001dB,-1.79976437567961e+002°)
3.01995172040201e+000	(5.55635042349826e+001dB,-1.79974768685640e+002°)
3.09029543251359e+000	(5.55635488685786e+001dB,-1.79972981643884e+002°)
3.16227766016837e+000	(5.55635977942911e+001dB,-1.79971068119791e+002°)
3.23593656929628e+000	(5.55636514249010e+001dB,-1.79969019210376e+002°)
3.31131121482591e+000	(5.55637102128546e+001dB,-1.79966825392925e+002°)
3.38844156139202e+000	(5.55637746540691e+001dB,-1.79964476482734e+002°)
3.46736850452531e+000	(5.55638452921012e+001dB,-1.79961961588083e+002°)
3.54813389233575e+000	(5.55639227227152e+001dB,-1.79959269062271e+002°)
3.63078054770101e+000	(5.55640075988864e+001dB,-1.79956386452535e+002°)
3.71535229097172e+000	(5.55641006362841e+001dB,-1.79953300445672e+002°)
3.80189396320560e+000	(5.55642026192762e+001dB,-1.79949996810177e+002°)
3.89045144994280e+000	(5.55643144075089e+001dB,-1.79946460334681e+002°)
3.98107170553496e+000	(5.55644369431120e+001dB,-1.79942674762493e+002°)
4.07380277804112e+000	(5.55645712585925e+001dB,-1.79938622722032e+002°)
4.16869383470335e+000	(5.55647184854801e+001dB,-1.79934285652900e+002°)
4.26579518801592e+000	(5.55648798637948e+001dB,-1.79929643727394e+002°)
4.36515832240165e+000	(5.55650567524167e+001dB,-1.79924675767193e+002°)
4.46683592150962e+000	(5.55652506404413e+001dB,-1.79919359154978e+002°)
4.57088189614874e+000	(5.55654631596138e+001dB,-1.79913669740747e+002°)
4.67735141287197e+000	(5.55656960979441e+001dB,-1.79907581742540e+002°)
4.78630092322637e+000	(5.55659514146138e+001dB,-1.79901067641340e+002°)
4.89778819368445e+000	(5.55662312562961e+001dB,-1.79894098069866e+002°)
5.01187233627271e+000	(5.55665379750214e+001dB,-1.79886641695013e+002°)
5.12861383991364e+000	(5.55668741477341e+001dB,-1.79878665093662e+002°)
5.24807460249771e+000	(5.55672425976972e+001dB,-1.79870132621618e+002°)
5.37031796370252e+000	(5.55676464179194e+001dB,-1.79861006275417e+002°)
5.49540873857623e+000	(5.55680889967917e+001dB,-1.79851245546784e+002°)
5.62341325190348e+000	(5.55685740461397e+001dB,-1.79840807269505e+002°)
5.75439937337156e+000	(5.55691056319163e+001dB,-1.79829645458533e+002°)
5.88843655355588e+000	(5.55696882077791e+001dB,-1.79817711141154e+002°)
6.02559586074356e+000	(5.55703266518202e+001dB,-1.79804952180083e+002°)
6.16595001861481e+000	(5.55710263067378e+001dB,-1.79791313088405e+002°)
6.30957344480192e+000	(5.55717930237686e+001dB,-1.79776734836329e+002°)
6.45654229034654e+000	(5.55726332107248e+001dB,-1.79761154649782e+002°)
6.60693448007594e+000	(5.55735538845120e+001dB,-1.79744505800957e+002°)
6.76082975391980e+000	(5.55745627285369e+001dB,-1.79726717391025e+002°)
6.91830970918935e+000	(5.55756681554514e+001dB,-1.79707714125312e+002°)
7.07945784384136e+000	(5.55768793757142e+001dB,-1.79687416081396e+002°)
7.24435960074988e+000	(5.55782064724981e+001dB,-1.79665738470711e+002°)
7.41310241300916e+000	(5.55796604835131e+001dB,-1.79642591394450e+002°)
7.58577575029182e+000	(5.55812534903655e+001dB,-1.79617879594717e+002°)
7.76247116628690e+000	(5.55829987161248e+001dB,-1.79591502202192e+002°)
7.94328234724279e+000	(5.55849106318276e+001dB,-1.79563352481780e+002°)
8.12830516164097e+000	(5.55870050727069e+001dB,-1.79533317578081e+002°)
8.31763771102669e+000	(5.55892993650023e+001dB,-1.79501278262890e+002°)
8.51138038202374e+000	(5.55918124642716e+001dB,-1.79467108687333e+002°)
8.70963589956078e+000	(5.55945651062027e+001dB,-1.79430676141786e+002°)
8.91250938133743e+000	(5.55975799709989e+001dB,-1.79391840827246e+002°)
9.12010839355907e+000	(5.56008818624972e+001dB,-1.79350455642492e+002°)
9.33254300796988e+000	(5.56044979032641e+001dB,-1.79306365992126e+002°)
9.54992586021433e+000	(5.56084577470063e+001dB,-1.79259409621403e+002°)
9.77237220955808e+000	(5.56127938097317e+001dB,-1.79209416484746e+002°)
9.99999999999997e+000	(5.56175415211946e+001dB,-1.79156208655947e+002°)
1.02329299228075e+001	(5.56227395982630e+001dB,-1.79099600289280e+002°)
1.04712854805090e+001	(5.56284303419552e+001dB,-1.79039397642216e+002°)
1.07151930523760e+001	(5.56346599599978e+001dB,-1.78975399172008e+002°)
1.09647819614318e+001	(5.56414789168697e+001dB,-1.78907395720278e+002°)
1.12201845430196e+001	(5.56489423134029e+001dB,-1.78835170801790e+002°)
1.14815362149688e+001	(5.56571102981182e+001dB,-1.78758501015962e+002°)
1.17489755493953e+001	(5.56660485125725e+001dB,-1.78677156602308e+002°)
1.20226443461741e+001	(5.56758285730883e+001dB,-1.78590902164003e+002°)
1.23026877081238e+001	(5.56865285913143e+001dB,-1.78499497587143e+002°)
1.25892541179416e+001	(5.56982337361318e+001dB,-1.78402699187043e+002°)
1.28824955169313e+001	(5.57110368394627e+001dB,-1.78300261117240e+002°)
1.31825673855640e+001	(5.57250390485495e+001dB,-1.78191937081584e+002°)
1.34896288259165e+001	(5.57403505272576e+001dB,-1.78077482395246e+002°)
1.38038426460288e+001	(5.57570912088854e+001dB,-1.77956656446425e+002°)
1.41253754462275e+001	(5.57753916028471e+001dB,-1.77829225617294e+002°)
1.44543977074592e+001	(5.57953936574110e+001dB,-1.77694966730197e+002°)
1.47910838816820e+001	(5.58172516804084e+001dB,-1.77553671093492e+002°)
1.51356124843620e+001	(5.58411333194702e+001dB,-1.77405149230739e+002°)
1.54881661891248e+001	(5.58672206028752e+001dB,-1.77249236387282e+002°)
1.58489319246111e+001	(5.58957110414870e+001dB,-1.77085798919819e+002°)
1.62181009735892e+001	(5.59268187914947e+001dB,-1.76914741687339e+002°)
1.65958690743755e+001	(5.59607758767297e+001dB,-1.76736016576071e+002°)
1.69824365246174e+001	(5.59978334681733e+001dB,-1.76549632306960e+002°)
1.73780082874937e+001	(5.60382632168736e+001dB,-1.76355665691897e+002°)
1.77827941003892e+001	(5.60823586348054e+001dB,-1.76154274524804e+002°)
1.81970085860998e+001	(5.61304365161968e+001dB,-1.75945712315974e+002°)
1.86208713666286e+001	(5.61828383894558e+001dB,-1.75730345103446e+002°)
1.90546071796324e+001	(5.62399319869815e+001dB,-1.75508670604045e+002°)
1.94984459975804e+001	(5.63021127167659e+001dB,-1.75281340000103e+002°)
1.99526231496887e+001	(5.63698051156487e+001dB,-1.75049182696706e+002°)
2.04173794466952e+001	(5.64434642592318e+001dB,-1.74813234430198e+002°)
2.08929613085403e+001	(5.65235770975540e+001dB,-1.74574769163376e+002°)
2.13796208950222e+001	(5.66106636783462e+001dB,-1.74335335268973e+002°)
2.18776162394954e+001	(5.67052782105652e+001dB,-1.74096796583761e+002°)
2.23872113856833e+001	(5.68080099092428e+001dB,-1.73861379015011e+002°)
2.29086765276776e+001	(5.69194835474976e+001dB,-1.73631723504256e+002°)
2.34422881531991e+001	(5.70403596213739e+001dB,-1.73410946306401e+002°)
2.39883291901948e+001	(5.71713340059066e+001dB,-1.73202707732493e+002°)
2.45470891568502e+001	(5.73131369434081e+001dB,-1.73011290739873e+002°)
2.51188643150957e+001	(5.74665311530976e+001dB,-1.72841691042206e+002°)
2.57039578276885e+001	(5.76323087786055e+001dB,-1.72699720760775e+002°)
2.63026799189537e+001	(5.78112867877814e+001dB,-1.72592128050324e+002°)
2.69153480392690e+001	(5.80043002951603e+001dB,-1.72526735601382e+002°)
2.75422870333815e+001	(5.82121930740347e+001dB,-1.72512601422409e+002°)
2.81838293126444e+001	(5.84358042383111e+001dB,-1.72560205782290e+002°)
2.88403150312659e+001	(5.86759496715551e+001dB,-1.72681668530964e+002°)
2.95120922666637e+001	(5.89333962185033e+001dB,-1.72891000995661e+002°)
3.01995172040200e+001	(5.92088258775804e+001dB,-1.73204395881449e+002°)
3.09029543251358e+001	(5.95027861759253e+001dB,-1.73640556408153e+002°)
3.16227766016837e+001	(5.98156215036707e+001dB,-1.74221061142662e+002°)
3.23593656929627e+001	(6.01473783874335e+001dB,-1.74970751748356e+002°)
3.31131121482590e+001	(6.04976755317354e+001dB,-1.75918114174731e+002°)
3.38844156139201e+001	(6.08655271955822e+001dB,-1.77095595121733e+002°)
3.46736850452530e+001	(6.12491067938020e+001dB,-1.78539748621059e+002°)
3.54813389233574e+001	(6.16454380950189e+001dB,1.79708965258612e+002°)
3.63078054770100e+001	(6.20500071564637e+001dB,1.77607012118131e+002°)
3.71535229097171e+001	(6.24563046473464e+001dB,1.75109660063335e+002°)
3.80189396320559e+001	(6.28553434710093e+001dB,1.72174444087316e+002°)
3.89045144994279e+001	(6.32352588693662e+001dB,1.68766792719071e+002°)
3.98107170553495e+001	(6.35811875064135e+001dB,1.64868146628167e+002°)
4.07380277804111e+001	(6.38757118773552e+001dB,1.60486120490010e+002°)
4.16869383470333e+001	(6.41001716566412e+001dB,1.55664790689453e+002°)
4.26579518801591e+001	(6.42369671749765e+001dB,1.50491382249967e+002°)
4.36515832240164e+001	(6.42725436970259e+001dB,1.45094729284353e+002°)
4.46683592150961e+001	(6.42001966253879e+001dB,1.39632612603320e+002°)
4.57088189614873e+001	(6.40215905010277e+001dB,1.34269802016373e+002°)
4.67735141287196e+001	(6.37462994935049e+001dB,1.29153724159636e+002°)
4.78630092322636e+001	(6.33895870627828e+001dB,1.24396101228548e+002°)
4.89778819368444e+001	(6.29693914285053e+001dB,1.20065408476241e+002°)
5.01187233627270e+001	(6.25035801193033e+001dB,1.16189569702554e+002°)
5.12861383991362e+001	(6.20080936637986e+001dB,1.12764805345362e+002°)
5.24807460249770e+001	(6.14960627511275e+001dB,1.09766187186150e+002°)
5.37031796370250e+001	(6.09776627896311e+001dB,1.07156975759552e+002°)
5.49540873857622e+001	(6.04603947873897e+001dB,1.04895568486423e+002°)
5.62341325190346e+001	(5.99495433313377e+001dB,1.02940044570835e+002°)
5.75439937337154e+001	(5.94486580497219e+001dB,1.01250798038634e+002°)
5.88843655355586e+001	(5.89599832195467e+001dB,9.97918411679941e+001°)
6.02559586074355e+001	(5.84848094783124e+001dB,9.85312685908950e+001°)
6.16595001861479e+001	(5.80237473024958e+001dB,9.74412356433155e+001°)
6.30957344480190e+001	(5.75769327458874e+001dB,9.64976830005934e+001°)
6.45654229034652e+001	(5.71441788090099e+001dB,9.56799496484676e+001°)
6.60693448007593e+001	(5.67250850529871e+001dB,9.49703558605498e+001°)
6.76082975391978e+001	(5.63191160064043e+001dB,9.43537998567654e+001°)
6.91830970918933e+001	(5.59256566513305e+001dB,9.38173890586631e+001°)
7.07945784384134e+001	(5.55440512656211e+001dB,9.33501138387727e+001°)
7.24435960074986e+001	(5.51736302729241e+001dB,9.29425646018685e+001°)
7.41310241300914e+001	(5.48137285004275e+001dB,9.25866894961554e+001°)
7.58577575029180e+001	(5.44636973088212e+001dB,9.22755885208276e+001°)
7.76247116628688e+001	(5.41229123717310e+001dB,9.20033393650322e+001°)
7.94328234724277e+001	(5.37907783824259e+001dB,9.17648504501794e+001°)
8.12830516164095e+001	(5.34667316048608e+001dB,9.15557370494240e+001°)
8.31763771102667e+001	(5.31502409264258e+001dB,9.13722168573615e+001°)
8.51138038202372e+001	(5.28408078831042e+001dB,9.12110218910773e+001°)
8.70963589956076e+001	(5.25379659935933e+001dB,9.10693240773762e+001°)
8.91250938133741e+001	(5.22412796424889e+001dB,9.09446723021998e+001°)
9.12010839355905e+001	(5.19503426832377e+001dB,9.08349390623188e+001°)
9.33254300796986e+001	(5.16647768815835e+001dB,9.07382751686034e+001°)
9.54992586021431e+001	(5.13842302842203e+001dB,9.06530712098588e+001°)
9.77237220955805e+001	(5.11083755714111e+001dB,9.05779247027527e+001°)
9.99999999999995e+001	(5.08369084336332e+001dB,9.05116120331467e+001°)
1.02329299228075e+002	(5.05695459988669e+001dB,9.04530644430459e+001°)
1.04712854805089e+002	(5.03060253274978e+001dB,9.04013474405851e+001°)
1.07151930523760e+002	(5.00461019849171e+001dB,9.03556431123997e+001°)
1.09647819614318e+002	(4.97895486970246e+001dB,9.03152349021164e+001°)
1.12201845430196e+002	(4.95361540904090e+001dB,9.02794944886446e+001°)
1.14815362149688e+002	(4.92857215166169e+001dB,9.02478704560153e+001°)
1.17489755493952e+002	(4.90380679583160e+001dB,9.02198784948050e+001°)
1.20226443461741e+002	(4.87930230141145e+001dB,9.01950929154278e+001°)
1.23026877081237e+002	(4.85504279581539e+001dB,9.01731392871835e+001°)
1.25892541179416e+002	(4.83101348702319e+001dB,9.01536880450828e+001°)
1.28824955169313e+002	(4.80720058320569e+001dB,9.01364489300620e+001°)
1.31825673855640e+002	(4.78359121852242e+001dB,9.01211661480434e+001°)
1.34896288259165e+002	(4.76017338465875e+001dB,9.01076141500078e+001°)
1.38038426460288e+002	(4.73693586768502e+001dB,9.00955939493683e+001°)
1.41253754462275e+002	(4.71386818983937e+001dB,9.00849299048802e+001°)
1.44543977074592e+002	(4.69096055585764e+001dB,9.00754669074542e+001°)
1.47910838816820e+002	(4.66820380349656e+001dB,9.00670679178571e+001°)
1.51356124843620e+002	(4.64558935791992e+001dB,9.00596118096154e+001°)
1.54881661891247e+002	(4.62310918964023e+001dB,9.00529914776973e+001°)
1.58489319246110e+002	(4.60075577573079e+001dB,9.00471121789009e+001°)
1.62181009735892e+002	(4.57852206404485e+001dB,9.00418900744557e+001°)
1.65958690743755e+002	(4.55640144019837e+001dB,9.00372509492785e+001°)
1.69824365246173e+002	(4.53438769709252e+001dB,9.00331290857024e+001°)
1.73780082874936e+002	(4.51247500676970e+001dB,9.00294662724056e+001°)
1.77827941003891e+002	(4.49065789441378e+001dB,9.00262109317742e+001°)
1.81970085860997e+002	(4.46893121432051e+001dB,9.00233173510972e+001°)
1.86208713666286e+002	(4.44729012767862e+001dB,9.00207450048640e+001°)
1.90546071796323e+002	(4.42573008201526e+001dB,9.00184579570545e+001°)
1.94984459975803e+002	(4.40424679217147e+001dB,9.00164243337151e+001°)
1.99526231496887e+002	(4.38283622268492e+001dB,9.00146158573367e+001°)
2.04173794466952e+002	(4.36149457146700e+001dB,9.00130074356052e+001°)
2.08929613085403e+002	(4.34021825467118e+001dB,9.00115767980211e+001°)
2.13796208950222e+002	(4.31900389265780e+001dB,9.00103041746838e+001°)
2.18776162394954e+002	(4.29784829696885e+001dB,9.00091720122403e+001°)
2.23872113856832e+002	(4.27674845823294e+001dB,9.00081647226025e+001°)
2.29086765276776e+002	(4.25570153492791e+001dB,9.00072684605788e+001°)
2.34422881531991e+002	(4.23470484293410e+001dB,9.00064709270237e+001°)
2.39883291901947e+002	(4.21375584581706e+001dB,9.00057611945247e+001°)
2.45470891568501e+002	(4.19285214578367e+001dB,9.00051295529975e+001°)
2.51188643150956e+002	(4.17199147525990e+001dB,9.00045673728778e+001°)
2.57039578276885e+002	(4.15117168904304e+001dB,9.00040669838707e+001°)
2.63026799189536e+002	(4.13039075698502e+001dB,9.00036215674604e+001°)
2.69153480392690e+002	(4.10964675716676e+001dB,9.00032250615955e+001°)
2.75422870333815e+002	(4.08893786952705e+001dB,9.00028720761500e+001°)
2.81838293126443e+002	(4.06826236991219e+001dB,9.00025578179261e+001°)
2.88403150312659e+002	(4.04761862451543e+001dB,9.00022780241057e+001°)
2.95120922666637e+002	(4.02700508467778e+001dB,9.00020289031896e+001°)
3.01995172040200e+002	(4.00642028202385e+001dB,9.00018070825685e+001°)
3.09029543251357e+002	(3.98586282390863e+001dB,9.00016095619753e+001°)
3.16227766016836e+002	(3.96533138915305e+001dB,9.00014336721499e+001°)
3.23593656929626e+002	(3.94482472404766e+001dB,9.00012770381273e+001°)
3.31131121482589e+002	(3.92434163860568e+001dB,9.00011375466269e+001°)
3.38844156139200e+002	(3.90388100304786e+001dB,9.00010133170798e+001°)
3.46736850452529e+002	(3.88344174450319e+001dB,9.00009026758848e+001°)
3.54813389233573e+002	(3.86302284391051e+001dB,9.00008041335306e+001°)
3.63078054770099e+002	(3.84262333310730e+001dB,9.00007163642613e+001°)
3.71535229097170e+002	(3.82224229209300e+001dB,9.00006381880013e+001°)
3.80189396320558e+002	(3.80187884645515e+001dB,9.00005685542862e+001°)
3.89045144994278e+002	(3.78153216494735e+001dB,9.00005065279748e+001°)
3.98107170553494e+002	(3.76120145720919e+001dB,9.00004512765450e+001°)
4.07380277804110e+002	(3.74088597161867e+001dB,9.00004020587946e+001°)
4.16869383470332e+002	(3.72058499326857e+001dB,9.00003582147931e+001°)
4.26579518801589e+002	(3.70029784205875e+001dB,9.00003191569430e+001°)
4.36515832240163e+002	(3.68002387089687e+001dB,9.00002843620286e+001°)
4.46683592150960e+002	(3.65976246400083e+001dB,9.00002533641425e+001°)
4.57088189614872e+002	(3.63951303529628e+001dB,9.00002257483918e+001°)
4.67735141287195e+002	(3.61927502690344e+001dB,9.00002011452981e+001°)
4.78630092322635e+002	(3.59904790770759e+001dB,9.00001792258148e+001°)
4.89778819368443e+002	(3.57883117200812e+001dB,9.00001596968921e+001°)
5.01187233627268e+002	(3.55862433824135e+001dB,9.00001422975304e+001°)
5.12861383991361e+002	(3.53842694777258e+001dB,9.00001267952679e+001°)
5.24807460249769e+002	(3.51823856375334e+001dB,9.00001129830540e+001°)
5.37031796370249e+002	(3.49805877003978e+001dB,9.00001006764659e+001°)
5.49540873857620e+002	(3.47788717016875e+001dB,9.00000897112316e+001°)
